# GHz S RI R 50
! True 4-Port Differential Channel: 6 inches
0.1000 0.05 0.00 0.00 0.00 0.794787 -0.547468 0.00 0.00 0.00 0.00 0.05 0.00 0.00 0.00 0.794787 -0.547468 0.794787 -0.547468 0.00 0.00 0.05 0.00 0.00 0.00 0.00 0.00 0.794787 -0.547468 0.00 0.00 0.05 0.00
0.2281 0.05 0.00 0.00 0.00 0.183434 -0.927784 0.00 0.00 0.00 0.00 0.05 0.00 0.00 0.00 0.183434 -0.927784 0.183434 -0.927784 0.00 0.00 0.05 0.00 0.00 0.00 0.00 0.00 0.183434 -0.927784 0.00 0.00 0.05 0.00
0.3561 0.05 0.00 0.00 0.00 -0.507955 -0.780023 0.00 0.00 0.00 0.00 0.05 0.00 0.00 0.00 -0.507955 -0.780023 -0.507955 -0.780023 0.00 0.00 0.05 0.00 0.00 0.00 0.00 0.00 -0.507955 -0.780023 0.00 0.00 0.05 0.00
0.4842 0.05 0.00 0.00 0.00 -0.895714 -0.201388 0.00 0.00 0.00 0.00 0.05 0.00 0.00 0.00 -0.895714 -0.201388 -0.895714 -0.201388 0.00 0.00 0.05 0.00 0.00 0.00 0.00 0.00 -0.895714 -0.201388 0.00 0.00 0.05 0.00
0.6122 0.05 0.00 0.00 0.00 -0.772351 0.474870 0.00 0.00 0.00 0.00 0.05 0.00 0.00 0.00 -0.772351 0.474870 -0.772351 0.474870 0.00 0.00 0.05 0.00 0.00 0.00 0.00 0.00 -0.772351 0.474870 0.00 0.00 0.05 0.00
0.7403 0.05 0.00 0.00 0.00 -0.219220 0.868962 0.00 0.00 0.00 0.00 0.05 0.00 0.00 0.00 -0.219220 0.868962 -0.219220 0.868962 0.00 0.00 0.05 0.00 0.00 0.00 0.00 0.00 -0.219220 0.868962 0.00 0.00 0.05 0.00
0.8683 0.05 0.00 0.00 0.00 0.444519 0.766923 0.00 0.00 0.00 0.00 0.05 0.00 0.00 0.00 0.444519 0.766923 0.444519 0.766923 0.00 0.00 0.05 0.00 0.00 0.00 0.00 0.00 0.444519 0.766923 0.00 0.00 0.05 0.00
0.9964 0.05 0.00 0.00 0.00 0.844744 0.236598 0.00 0.00 0.00 0.00 0.05 0.00 0.00 0.00 0.844744 0.236598 0.844744 0.236598 0.00 0.00 0.05 0.00 0.00 0.00 0.00 0.00 0.844744 0.236598 0.00 0.00 0.05 0.00
1.1244 0.05 0.00 0.00 0.00 0.762492 -0.415889 0.00 0.00 0.00 0.00 0.05 0.00 0.00 0.00 0.762492 -0.415889 0.762492 -0.415889 0.00 0.00 0.05 0.00 0.00 0.00 0.00 0.00 0.762492 -0.415889 0.00 0.00 0.05 0.00
1.2525 0.05 0.00 0.00 0.00 0.253430 -0.822038 0.00 0.00 0.00 0.00 0.05 0.00 0.00 0.00 0.253430 -0.822038 0.253430 -0.822038 0.00 0.00 0.05 0.00 0.00 0.00 0.00 0.00 0.253430 -0.822038 0.00 0.00 0.05 0.00
1.3806 0.05 0.00 0.00 0.00 -0.388522 -0.758522 0.00 0.00 0.00 0.00 0.05 0.00 0.00 0.00 -0.388522 -0.758522 -0.388522 -0.758522 0.00 0.00 0.05 0.00 0.00 0.00 0.00 0.00 -0.388522 -0.758522 0.00 0.00 0.05 0.00
1.5086 0.05 0.00 0.00 0.00 -0.800334 -0.269683 0.00 0.00 0.00 0.00 0.05 0.00 0.00 0.00 -0.800334 -0.269683 -0.800334 -0.269683 0.00 0.00 0.05 0.00 0.00 0.00 0.00 0.00 -0.800334 -0.269683 0.00 0.00 0.05 0.00
1.6367 0.05 0.00 0.00 0.00 -0.754730 0.362162 0.00 0.00 0.00 0.00 0.05 0.00 0.00 0.00 -0.754730 0.362162 -0.754730 0.362162 0.00 0.00 0.05 0.00 0.00 0.00 0.00 0.00 -0.754730 0.362162 0.00 0.00 0.05 0.00
1.7647 0.05 0.00 0.00 0.00 -0.285344 0.779339 0.00 0.00 0.00 0.00 0.05 0.00 0.00 0.00 -0.285344 0.779339 -0.285344 0.779339 0.00 0.00 0.05 0.00 0.00 0.00 0.00 0.00 -0.285344 0.779339 0.00 0.00 0.05 0.00
1.8928 0.05 0.00 0.00 0.00 0.336650 0.750948 0.00 0.00 0.00 0.00 0.05 0.00 0.00 0.00 0.336650 0.750948 0.336650 0.750948 0.00 0.00 0.05 0.00 0.00 0.00 0.00 0.00 0.336650 0.750948 0.00 0.00 0.05 0.00
2.0208 0.05 0.00 0.00 0.00 0.758869 0.300413 0.00 0.00 0.00 0.00 0.05 0.00 0.00 0.00 0.758869 0.300413 0.758869 0.300413 0.00 0.00 0.05 0.00 0.00 0.00 0.00 0.00 0.758869 0.300413 0.00 0.00 0.05 0.00
2.1489 0.05 0.00 0.00 0.00 0.747070 -0.311879 0.00 0.00 0.00 0.00 0.05 0.00 0.00 0.00 0.747070 -0.311879 0.747070 -0.311879 0.00 0.00 0.05 0.00 0.00 0.00 0.00 0.00 0.747070 -0.311879 0.00 0.00 0.05 0.00
2.2770 0.05 0.00 0.00 0.00 0.314892 -0.738799 0.00 0.00 0.00 0.00 0.05 0.00 0.00 0.00 0.314892 -0.738799 0.314892 -0.738799 0.00 0.00 0.05 0.00 0.00 0.00 0.00 0.00 0.314892 -0.738799 0.00 0.00 0.05 0.00
2.4050 0.05 0.00 0.00 0.00 -0.287775 -0.743026 0.00 0.00 0.00 0.00 0.05 0.00 0.00 0.00 -0.287775 -0.743026 -0.287775 -0.743026 0.00 0.00 0.05 0.00 0.00 0.00 0.00 0.00 -0.287775 -0.743026 0.00 0.00 0.05 0.00
2.5331 0.05 0.00 0.00 0.00 -0.719044 -0.328784 0.00 0.00 0.00 0.00 0.05 0.00 0.00 0.00 -0.719044 -0.328784 -0.719044 -0.328784 0.00 0.00 0.05 0.00 0.00 0.00 0.00 0.00 -0.719044 -0.328784 0.00 0.00 0.05 0.00
2.6611 0.05 0.00 0.00 0.00 -0.738769 0.264283 0.00 0.00 0.00 0.00 0.05 0.00 0.00 0.00 -0.738769 0.264283 -0.738769 0.264283 0.00 0.00 0.05 0.00 0.00 0.00 0.00 0.00 -0.738769 0.264283 0.00 0.00 0.05 0.00
2.7892 0.05 0.00 0.00 0.00 -0.342097 0.699543 0.00 0.00 0.00 0.00 0.05 0.00 0.00 0.00 -0.342097 0.699543 -0.342097 0.699543 0.00 0.00 0.05 0.00 0.00 0.00 0.00 0.00 -0.342097 0.699543 0.00 0.00 0.05 0.00
2.9172 0.05 0.00 0.00 0.00 0.241361 0.734267 0.00 0.00 0.00 0.00 0.05 0.00 0.00 0.00 0.241361 0.734267 0.241361 0.734267 0.00 0.00 0.05 0.00 0.00 0.00 0.00 0.00 0.241361 0.734267 0.00 0.00 0.05 0.00
3.0453 0.05 0.00 0.00 0.00 0.680251 0.354834 0.00 0.00 0.00 0.00 0.05 0.00 0.00 0.00 0.680251 0.354834 0.680251 0.354834 0.00 0.00 0.05 0.00 0.00 0.00 0.00 0.00 0.680251 0.354834 0.00 0.00 0.05 0.00
3.1733 0.05 0.00 0.00 0.00 0.729496 -0.218979 0.00 0.00 0.00 0.00 0.05 0.00 0.00 0.00 0.729496 -0.218979 0.729496 -0.218979 0.00 0.00 0.05 0.00 0.00 0.00 0.00 0.00 0.729496 -0.218979 0.00 0.00 0.05 0.00
3.3014 0.05 0.00 0.00 0.00 0.367004 -0.661136 0.00 0.00 0.00 0.00 0.05 0.00 0.00 0.00 0.367004 -0.661136 0.367004 -0.661136 0.00 0.00 0.05 0.00 0.00 0.00 0.00 0.00 0.367004 -0.661136 0.00 0.00 0.05 0.00
3.4295 0.05 0.00 0.00 0.00 -0.197112 -0.724442 0.00 0.00 0.00 0.00 0.05 0.00 0.00 0.00 -0.197112 -0.724442 -0.197112 -0.724442 0.00 0.00 0.05 0.00 0.00 0.00 0.00 0.00 -0.197112 -0.724442 0.00 0.00 0.05 0.00
3.5575 0.05 0.00 0.00 0.00 -0.642173 -0.378613 0.00 0.00 0.00 0.00 0.05 0.00 0.00 0.00 -0.642173 -0.378613 -0.642173 -0.378613 0.00 0.00 0.05 0.00 0.00 0.00 0.00 0.00 -0.642173 -0.378613 0.00 0.00 0.05 0.00
3.6856 0.05 0.00 0.00 0.00 -0.719094 0.175740 0.00 0.00 0.00 0.00 0.05 0.00 0.00 0.00 -0.719094 0.175740 -0.719094 0.175740 0.00 0.00 0.05 0.00 0.00 0.00 0.00 0.00 -0.719094 0.175740 0.00 0.00 0.05 0.00
3.8136 0.05 0.00 0.00 0.00 -0.389668 0.623346 0.00 0.00 0.00 0.00 0.05 0.00 0.00 0.00 -0.389668 0.623346 -0.389668 0.623346 0.00 0.00 0.05 0.00 0.00 0.00 0.00 0.00 -0.389668 0.623346 0.00 0.00 0.05 0.00
3.9417 0.05 0.00 0.00 0.00 0.154850 0.713448 0.00 0.00 0.00 0.00 0.05 0.00 0.00 0.00 0.154850 0.713448 0.154850 0.713448 0.00 0.00 0.05 0.00 0.00 0.00 0.00 0.00 0.154850 0.713448 0.00 0.00 0.05 0.00
4.0697 0.05 0.00 0.00 0.00 0.604642 0.400174 0.00 0.00 0.00 0.00 0.05 0.00 0.00 0.00 0.604642 0.400174 0.604642 0.400174 0.00 0.00 0.05 0.00 0.00 0.00 0.00 0.00 0.604642 0.400174 0.00 0.00 0.05 0.00
4.1978 0.05 0.00 0.00 0.00 0.707501 -0.134428 0.00 0.00 0.00 0.00 0.05 0.00 0.00 0.00 0.707501 -0.134428 0.707501 -0.134428 0.00 0.00 0.05 0.00 0.00 0.00 0.00 0.00 0.707501 -0.134428 0.00 0.00 0.05 0.00
4.3259 0.05 0.00 0.00 0.00 0.410140 -0.586052 0.00 0.00 0.00 0.00 0.05 0.00 0.00 0.00 0.410140 -0.586052 0.410140 -0.586052 0.00 0.00 0.05 0.00 0.00 0.00 0.00 0.00 0.410140 -0.586052 0.00 0.00 0.05 0.00
4.4539 0.05 0.00 0.00 0.00 -0.114464 -0.701252 0.00 0.00 0.00 0.00 0.05 0.00 0.00 0.00 -0.114464 -0.701252 -0.114464 -0.701252 0.00 0.00 0.05 0.00 0.00 0.00 0.00 0.00 -0.114464 -0.701252 0.00 0.00 0.05 0.00
4.5820 0.05 0.00 0.00 0.00 -0.567571 -0.419571 0.00 0.00 0.00 0.00 0.05 0.00 0.00 0.00 -0.567571 -0.419571 -0.567571 -0.419571 0.00 0.00 0.05 0.00 0.00 0.00 0.00 0.00 -0.567571 -0.419571 0.00 0.00 0.05 0.00
4.7100 0.05 0.00 0.00 0.00 -0.694703 0.094952 0.00 0.00 0.00 0.00 0.05 0.00 0.00 0.00 -0.694703 0.094952 -0.694703 0.094952 0.00 0.00 0.05 0.00 0.00 0.00 0.00 0.00 -0.694703 0.094952 0.00 0.00 0.05 0.00
4.8381 0.05 0.00 0.00 0.00 -0.428474 0.549195 0.00 0.00 0.00 0.00 0.05 0.00 0.00 0.00 -0.428474 0.549195 -0.428474 0.549195 0.00 0.00 0.05 0.00 0.00 0.00 0.00 0.00 -0.428474 0.549195 0.00 0.00 0.05 0.00
4.9661 0.05 0.00 0.00 0.00 0.075883 0.687857 0.00 0.00 0.00 0.00 0.05 0.00 0.00 0.00 0.075883 0.687857 0.075883 0.687857 0.00 0.00 0.05 0.00 0.00 0.00 0.00 0.00 0.075883 0.687857 0.00 0.00 0.05 0.00
5.0942 0.05 0.00 0.00 0.00 0.530922 0.436858 0.00 0.00 0.00 0.00 0.05 0.00 0.00 0.00 0.530922 0.436858 0.530922 0.436858 0.00 0.00 0.05 0.00 0.00 0.00 0.00 0.00 0.530922 0.436858 0.00 0.00 0.05 0.00
5.2222 0.05 0.00 0.00 0.00 0.680718 -0.057254 0.00 0.00 0.00 0.00 0.05 0.00 0.00 0.00 0.680718 -0.057254 0.680718 -0.057254 0.00 0.00 0.05 0.00 0.00 0.00 0.00 0.00 0.680718 -0.057254 0.00 0.00 0.05 0.00
5.3503 0.05 0.00 0.00 0.00 0.444727 -0.512753 0.00 0.00 0.00 0.00 0.05 0.00 0.00 0.00 0.444727 -0.512753 0.444727 -0.512753 0.00 0.00 0.05 0.00 0.00 0.00 0.00 0.00 0.444727 -0.512753 0.00 0.00 0.05 0.00
5.4784 0.05 0.00 0.00 0.00 -0.039059 -0.673292 0.00 0.00 0.00 0.00 0.05 0.00 0.00 0.00 -0.039059 -0.673292 -0.039059 -0.673292 0.00 0.00 0.05 0.00 0.00 0.00 0.00 0.00 -0.039059 -0.673292 0.00 0.00 0.05 0.00
5.6064 0.05 0.00 0.00 0.00 -0.494689 -0.452089 0.00 0.00 0.00 0.00 0.05 0.00 0.00 0.00 -0.494689 -0.452089 -0.494689 -0.452089 0.00 0.00 0.05 0.00 0.00 0.00 0.00 0.00 -0.494689 -0.452089 0.00 0.00 0.05 0.00
5.7345 0.05 0.00 0.00 0.00 -0.665585 0.021294 0.00 0.00 0.00 0.00 0.05 0.00 0.00 0.00 -0.665585 0.021294 -0.665585 0.021294 0.00 0.00 0.05 0.00 0.00 0.00 0.00 0.00 -0.665585 0.021294 0.00 0.00 0.05 0.00
5.8625 0.05 0.00 0.00 0.00 -0.458952 0.476733 0.00 0.00 0.00 0.00 0.05 0.00 0.00 0.00 -0.458952 0.476733 -0.458952 0.476733 0.00 0.00 0.05 0.00 0.00 0.00 0.00 0.00 -0.458952 0.476733 0.00 0.00 0.05 0.00
5.9906 0.05 0.00 0.00 0.00 0.003958 0.657604 0.00 0.00 0.00 0.00 0.05 0.00 0.00 0.00 0.003958 0.657604 0.003958 0.657604 0.00 0.00 0.05 0.00 0.00 0.00 0.00 0.00 0.003958 0.657604 0.00 0.00 0.05 0.00
6.1186 0.05 0.00 0.00 0.00 0.458886 0.465321 0.00 0.00 0.00 0.00 0.05 0.00 0.00 0.00 0.458886 0.465321 0.458886 0.465321 0.00 0.00 0.05 0.00 0.00 0.00 0.00 0.00 0.458886 0.465321 0.00 0.00 0.05 0.00
6.2467 0.05 0.00 0.00 0.00 0.649356 0.012953 0.00 0.00 0.00 0.00 0.05 0.00 0.00 0.00 0.649356 0.012953 0.649356 0.012953 0.00 0.00 0.05 0.00 0.00 0.00 0.00 0.00 0.649356 0.012953 0.00 0.00 0.05 0.00
6.3747 0.05 0.00 0.00 0.00 0.471205 -0.441153 0.00 0.00 0.00 0.00 0.05 0.00 0.00 0.00 0.471205 -0.441153 0.471205 -0.441153 0.00 0.00 0.05 0.00 0.00 0.00 0.00 0.00 0.471205 -0.441153 0.00 0.00 0.05 0.00
6.5028 0.05 0.00 0.00 0.00 0.029441 -0.640849 0.00 0.00 0.00 0.00 0.05 0.00 0.00 0.00 0.029441 -0.640849 0.029441 -0.640849 0.00 0.00 0.05 0.00 0.00 0.00 0.00 0.00 0.029441 -0.640849 0.00 0.00 0.05 0.00
6.6309 0.05 0.00 0.00 0.00 -0.423538 -0.476610 0.00 0.00 0.00 0.00 0.05 0.00 0.00 0.00 -0.423538 -0.476610 -0.423538 -0.476610 0.00 0.00 0.05 0.00 0.00 0.00 0.00 0.00 -0.423538 -0.476610 0.00 0.00 0.05 0.00
6.7589 0.05 0.00 0.00 0.00 -0.632091 -0.045508 0.00 0.00 0.00 0.00 0.05 0.00 0.00 0.00 -0.632091 -0.045508 -0.632091 -0.045508 0.00 0.00 0.05 0.00 0.00 0.00 0.00 0.00 -0.632091 -0.045508 0.00 0.00 0.05 0.00
6.8870 0.05 0.00 0.00 0.00 -0.481543 0.406046 0.00 0.00 0.00 0.00 0.05 0.00 0.00 0.00 -0.481543 0.406046 -0.481543 0.406046 0.00 0.00 0.05 0.00 0.00 0.00 0.00 0.00 -0.481543 0.406046 0.00 0.00 0.05 0.00
7.0150 0.05 0.00 0.00 0.00 -0.061156 0.623091 0.00 0.00 0.00 0.00 0.05 0.00 0.00 0.00 -0.061156 0.623091 -0.061156 0.623091 0.00 0.00 0.05 0.00 0.00 0.00 0.00 0.00 -0.061156 0.623091 0.00 0.00 0.05 0.00
7.1431 0.05 0.00 0.00 0.00 0.388682 0.486013 0.00 0.00 0.00 0.00 0.05 0.00 0.00 0.00 0.388682 0.486013 0.388682 0.486013 0.00 0.00 0.05 0.00 0.00 0.00 0.00 0.00 0.388682 0.486013 0.00 0.00 0.05 0.00
7.2711 0.05 0.00 0.00 0.00 0.613857 0.076386 0.00 0.00 0.00 0.00 0.05 0.00 0.00 0.00 0.613857 0.076386 0.613857 0.076386 0.00 0.00 0.05 0.00 0.00 0.00 0.00 0.00 0.613857 0.076386 0.00 0.00 0.05 0.00
7.3992 0.05 0.00 0.00 0.00 0.490025 -0.371450 0.00 0.00 0.00 0.00 0.05 0.00 0.00 0.00 0.490025 -0.371450 0.490025 -0.371450 0.00 0.00 0.05 0.00 0.00 0.00 0.00 0.00 0.490025 -0.371450 0.00 0.00 0.05 0.00
7.5273 0.05 0.00 0.00 0.00 0.091200 -0.604398 0.00 0.00 0.00 0.00 0.05 0.00 0.00 0.00 0.091200 -0.604398 0.091200 -0.604398 0.00 0.00 0.05 0.00 0.00 0.00 0.00 0.00 0.091200 -0.604398 0.00 0.00 0.05 0.00
7.6553 0.05 0.00 0.00 0.00 -0.354357 -0.493587 0.00 0.00 0.00 0.00 0.05 0.00 0.00 0.00 -0.354357 -0.493587 -0.354357 -0.493587 0.00 0.00 0.05 0.00 0.00 0.00 0.00 0.00 -0.354357 -0.493587 0.00 0.00 0.05 0.00
7.7834 0.05 0.00 0.00 0.00 -0.594724 -0.105599 0.00 0.00 0.00 0.00 0.05 0.00 0.00 0.00 -0.594724 -0.105599 -0.594724 -0.105599 0.00 0.00 0.05 0.00 0.00 0.00 0.00 0.00 -0.594724 -0.105599 0.00 0.00 0.05 0.00
7.9114 0.05 0.00 0.00 0.00 -0.496708 0.337407 0.00 0.00 0.00 0.00 0.05 0.00 0.00 0.00 -0.496708 0.337407 -0.496708 0.337407 0.00 0.00 0.05 0.00 0.00 0.00 0.00 0.00 -0.496708 0.337407 0.00 0.00 0.05 0.00
8.0395 0.05 0.00 0.00 0.00 -0.119584 0.584843 0.00 0.00 0.00 0.00 0.05 0.00 0.00 0.00 -0.119584 0.584843 -0.119584 0.584843 0.00 0.00 0.05 0.00 0.00 0.00 0.00 0.00 -0.119584 0.584843 0.00 0.00 0.05 0.00
8.1675 0.05 0.00 0.00 0.00 0.320607 0.499394 0.00 0.00 0.00 0.00 0.05 0.00 0.00 0.00 0.320607 0.499394 0.320607 0.499394 0.00 0.00 0.05 0.00 0.00 0.00 0.00 0.00 0.320607 0.499394 0.00 0.00 0.05 0.00
8.2956 0.05 0.00 0.00 0.00 0.574766 0.133157 0.00 0.00 0.00 0.00 0.05 0.00 0.00 0.00 0.574766 0.133157 0.574766 0.133157 0.00 0.00 0.05 0.00 0.00 0.00 0.00 0.00 0.574766 0.133157 0.00 0.00 0.05 0.00
8.4236 0.05 0.00 0.00 0.00 0.501654 -0.303962 0.00 0.00 0.00 0.00 0.05 0.00 0.00 0.00 0.501654 -0.303962 0.501654 -0.303962 0.00 0.00 0.05 0.00 0.00 0.00 0.00 0.00 0.501654 -0.303962 0.00 0.00 0.05 0.00
8.5517 0.05 0.00 0.00 0.00 0.146319 -0.564501 0.00 0.00 0.00 0.00 0.05 0.00 0.00 0.00 0.146319 -0.564501 0.146319 -0.564501 0.00 0.00 0.05 0.00 0.00 0.00 0.00 0.00 0.146319 -0.564501 0.00 0.00 0.05 0.00
8.6798 0.05 0.00 0.00 0.00 -0.287478 -0.503494 0.00 0.00 0.00 0.00 0.05 0.00 0.00 0.00 -0.287478 -0.503494 -0.287478 -0.503494 0.00 0.00 0.05 0.00 0.00 0.00 0.00 0.00 -0.287478 -0.503494 0.00 0.00 0.05 0.00
8.8078 0.05 0.00 0.00 0.00 -0.554059 -0.159072 0.00 0.00 0.00 0.00 0.05 0.00 0.00 0.00 -0.554059 -0.159072 -0.554059 -0.159072 0.00 0.00 0.05 0.00 0.00 0.00 0.00 0.00 -0.554059 -0.159072 0.00 0.00 0.05 0.00
8.9359 0.05 0.00 0.00 0.00 -0.504923 0.271160 0.00 0.00 0.00 0.00 0.05 0.00 0.00 0.00 -0.504923 0.271160 -0.504923 0.271160 0.00 0.00 0.05 0.00 0.00 0.00 0.00 0.00 -0.504923 0.271160 0.00 0.00 0.05 0.00
9.0639 0.05 0.00 0.00 0.00 -0.171417 0.543448 0.00 0.00 0.00 0.00 0.05 0.00 0.00 0.00 -0.171417 0.543448 -0.171417 0.543448 0.00 0.00 0.05 0.00 0.00 0.00 0.00 0.00 -0.171417 0.543448 0.00 0.00 0.05 0.00
9.1920 0.05 0.00 0.00 0.00 0.255015 0.505949 0.00 0.00 0.00 0.00 0.05 0.00 0.00 0.00 0.255015 0.505949 0.255015 0.505949 0.00 0.00 0.05 0.00 0.00 0.00 0.00 0.00 0.255015 0.505949 0.00 0.00 0.05 0.00
9.3200 0.05 0.00 0.00 0.00 0.532679 0.183355 0.00 0.00 0.00 0.00 0.05 0.00 0.00 0.00 0.532679 0.183355 0.532679 0.183355 0.00 0.00 0.05 0.00 0.00 0.00 0.00 0.00 0.532679 0.183355 0.00 0.00 0.05 0.00
9.4481 0.05 0.00 0.00 0.00 0.506579 -0.239048 0.00 0.00 0.00 0.00 0.05 0.00 0.00 0.00 0.506579 -0.239048 0.506579 -0.239048 0.00 0.00 0.05 0.00 0.00 0.00 0.00 0.00 0.506579 -0.239048 0.00 0.00 0.05 0.00
9.5762 0.05 0.00 0.00 0.00 0.194889 -0.521761 0.00 0.00 0.00 0.00 0.05 0.00 0.00 0.00 0.194889 -0.521761 0.194889 -0.521761 0.00 0.00 0.05 0.00 0.00 0.00 0.00 0.00 0.194889 -0.521761 0.00 0.00 0.05 0.00
9.7042 0.05 0.00 0.00 0.00 -0.223265 -0.506821 0.00 0.00 0.00 0.00 0.05 0.00 0.00 0.00 -0.223265 -0.506821 -0.223265 -0.506821 0.00 0.00 0.05 0.00 0.00 0.00 0.00 0.00 -0.223265 -0.506821 0.00 0.00 0.05 0.00
9.8323 0.05 0.00 0.00 0.00 -0.510703 -0.206020 0.00 0.00 0.00 0.00 0.05 0.00 0.00 0.00 -0.510703 -0.206020 -0.510703 -0.206020 0.00 0.00 0.05 0.00 0.00 0.00 0.00 0.00 -0.510703 -0.206020 0.00 0.00 0.05 0.00
9.9603 0.05 0.00 0.00 0.00 -0.506684 0.207670 0.00 0.00 0.00 0.00 0.05 0.00 0.00 0.00 -0.506684 0.207670 -0.506684 0.207670 0.00 0.00 0.05 0.00 0.00 0.00 0.00 0.00 -0.506684 0.207670 0.00 0.00 0.05 0.00
10.0884 0.05 0.00 0.00 0.00 -0.216750 0.499515 0.00 0.00 0.00 0.00 0.05 0.00 0.00 0.00 -0.216750 0.499515 -0.216750 0.499515 0.00 0.00 0.05 0.00 0.00 0.00 0.00 0.00 -0.216750 0.499515 0.00 0.00 0.05 0.00
10.2164 0.05 0.00 0.00 0.00 0.192270 0.506176 0.00 0.00 0.00 0.00 0.05 0.00 0.00 0.00 0.192270 0.506176 0.192270 0.506176 0.00 0.00 0.05 0.00 0.00 0.00 0.00 0.00 0.192270 0.506176 0.00 0.00 0.05 0.00
10.3445 0.05 0.00 0.00 0.00 0.488208 0.227081 0.00 0.00 0.00 0.00 0.05 0.00 0.00 0.00 0.488208 0.227081 0.488208 0.227081 0.00 0.00 0.05 0.00 0.00 0.00 0.00 0.00 0.488208 0.227081 0.00 0.00 0.05 0.00
10.4725 0.05 0.00 0.00 0.00 0.505305 -0.177070 0.00 0.00 0.00 0.00 0.05 0.00 0.00 0.00 0.505305 -0.177070 0.505305 -0.177070 0.00 0.00 0.05 0.00 0.00 0.00 0.00 0.00 0.505305 -0.177070 0.00 0.00 0.05 0.00
10.6006 0.05 0.00 0.00 0.00 0.237014 -0.476789 0.00 0.00 0.00 0.00 0.05 0.00 0.00 0.00 0.237014 -0.476789 0.237014 -0.476789 0.00 0.00 0.05 0.00 0.00 0.00 0.00 0.00 0.237014 -0.476789 0.00 0.00 0.05 0.00
10.7287 0.05 0.00 0.00 0.00 -0.162074 -0.504078 0.00 0.00 0.00 0.00 0.05 0.00 0.00 0.00 -0.162074 -0.504078 -0.162074 -0.504078 0.00 0.00 0.05 0.00 0.00 0.00 0.00 0.00 -0.162074 -0.504078 0.00 0.00 0.05 0.00
10.8567 0.05 0.00 0.00 0.00 -0.465269 -0.246554 0.00 0.00 0.00 0.00 0.05 0.00 0.00 0.00 -0.465269 -0.246554 -0.465269 -0.246554 0.00 0.00 0.05 0.00 0.00 0.00 0.00 0.00 -0.465269 -0.246554 0.00 0.00 0.05 0.00
10.9848 0.05 0.00 0.00 0.00 -0.502505 0.147289 0.00 0.00 0.00 0.00 0.05 0.00 0.00 0.00 -0.502505 0.147289 -0.502505 0.147289 0.00 0.00 0.05 0.00 0.00 0.00 0.00 0.00 -0.502505 0.147289 0.00 0.00 0.05 0.00
11.1128 0.05 0.00 0.00 0.00 -0.255700 0.453657 0.00 0.00 0.00 0.00 0.05 0.00 0.00 0.00 -0.255700 0.453657 -0.255700 0.453657 0.00 0.00 0.05 0.00 0.00 0.00 0.00 0.00 -0.255700 0.453657 0.00 0.00 0.05 0.00
11.2409 0.05 0.00 0.00 0.00 0.132718 0.500594 0.00 0.00 0.00 0.00 0.05 0.00 0.00 0.00 0.132718 0.500594 0.132718 0.500594 0.00 0.00 0.05 0.00 0.00 0.00 0.00 0.00 0.132718 0.500594 0.00 0.00 0.05 0.00
11.3689 0.05 0.00 0.00 0.00 0.441962 0.264457 0.00 0.00 0.00 0.00 0.05 0.00 0.00 0.00 0.441962 0.264457 0.441962 0.264457 0.00 0.00 0.05 0.00 0.00 0.00 0.00 0.00 0.441962 0.264457 0.00 0.00 0.05 0.00
11.4970 0.05 0.00 0.00 0.00 0.498352 -0.118367 0.00 0.00 0.00 0.00 0.05 0.00 0.00 0.00 0.498352 -0.118367 0.498352 -0.118367 0.00 0.00 0.05 0.00 0.00 0.00 0.00 0.00 0.498352 -0.118367 0.00 0.00 0.05 0.00
11.6251 0.05 0.00 0.00 0.00 0.272827 -0.430194 0.00 0.00 0.00 0.00 0.05 0.00 0.00 0.00 0.272827 -0.430194 0.272827 -0.430194 0.00 0.00 0.05 0.00 0.00 0.00 0.00 0.00 0.272827 -0.430194 0.00 0.00 0.05 0.00
11.7531 0.05 0.00 0.00 0.00 -0.104240 -0.495789 0.00 0.00 0.00 0.00 0.05 0.00 0.00 0.00 -0.104240 -0.495789 -0.104240 -0.495789 0.00 0.00 0.05 0.00 0.00 0.00 0.00 0.00 -0.104240 -0.495789 0.00 0.00 0.05 0.00
11.8812 0.05 0.00 0.00 0.00 -0.418361 -0.280812 0.00 0.00 0.00 0.00 0.05 0.00 0.00 0.00 -0.418361 -0.280812 -0.418361 -0.280812 0.00 0.00 0.05 0.00 0.00 0.00 0.00 0.00 -0.418361 -0.280812 0.00 0.00 0.05 0.00
12.0092 0.05 0.00 0.00 0.00 -0.492913 0.090341 0.00 0.00 0.00 0.00 0.05 0.00 0.00 0.00 -0.492913 0.090341 -0.492913 0.090341 0.00 0.00 0.05 0.00 0.00 0.00 0.00 0.00 -0.492913 0.090341 0.00 0.00 0.05 0.00
12.1373 0.05 0.00 0.00 0.00 -0.288416 0.406473 0.00 0.00 0.00 0.00 0.05 0.00 0.00 0.00 -0.288416 0.406473 -0.288416 0.406473 0.00 0.00 0.05 0.00 0.00 0.00 0.00 0.00 -0.288416 0.406473 0.00 0.00 0.05 0.00
12.2653 0.05 0.00 0.00 0.00 0.076675 0.489732 0.00 0.00 0.00 0.00 0.05 0.00 0.00 0.00 0.076675 0.489732 0.076675 0.489732 0.00 0.00 0.05 0.00 0.00 0.00 0.00 0.00 0.076675 0.489732 0.00 0.00 0.05 0.00
12.3934 0.05 0.00 0.00 0.00 0.394538 0.295641 0.00 0.00 0.00 0.00 0.05 0.00 0.00 0.00 0.394538 0.295641 0.394538 0.295641 0.00 0.00 0.05 0.00 0.00 0.00 0.00 0.00 0.394538 0.295641 0.00 0.00 0.05 0.00
12.5214 0.05 0.00 0.00 0.00 0.486255 -0.063246 0.00 0.00 0.00 0.00 0.05 0.00 0.00 0.00 0.486255 -0.063246 0.486255 -0.063246 0.00 0.00 0.05 0.00 0.00 0.00 0.00 0.00 0.486255 -0.063246 0.00 0.00 0.05 0.00
